time,V(N001),V(N002),I(V1),I(R1),I(C1),I(L1)
0,1,-0,-0.0001,-0.0001,-0.0001,0
1e-06,1,-0,-0.0001,-0.0001,-0.0001,0
2e-06,1,0.1,-9e-05,-9e-05,-9e-05,0
3e-06,1,0.19,-8.1e-05,-8.1e-05,1.9e-05,-0.0001
4e-06,1,0.171,-8.29e-05,-8.29e-05,0.0002071,-0.00029
5e-06,1,-0.0361,-0.00010361,-0.00010361,0.00035739,-0.000461
6e-06,1,-0.39349,-0.000139349,-0.000139349,0.000285551,-0.0004249
7e-06,1,-0.679041,-0.000167904,-0.000167904,-0.000136494,-3.141e-05
8e-06,1,-0.542547,-0.000154255,-0.000154255,-0.000801886,0.000647631
9e-06,1,0.259339,-7.40661e-05,-7.40661e-05,-0.00126424,0.00119018
1e-05,1,1.52358,5.23583e-05,5.23583e-05,-0.000878481,0.000930839
1.1e-05,1,2.40206,0.000140206,0.000140206,0.00073295,-0.000592744
1.2e-05,1,1.66911,6.69114e-05,6.69114e-05,0.00306172,-0.00299481
1.3e-05,1,-1.39261,-0.000239261,-0.000239261,0.00442466,-0.00466392
1.4e-05,1,-5.81727,-0.000681727,-0.000681727,0.00258959,-0.00327132
1.5e-05,1,-8.40685,-0.000940685,-0.000940685,-0.00348664,0.00254595
1.6e-05,1,-4.92022,-0.000592022,-0.000592022,-0.0115448,0.0109528
1.7e-05,1,6.62461,0.000562461,0.000562461,-0.0153106,0.015873
1.8e-05,1,21.9352,0.00209352,0.00209352,-0.0071549,0.00924842
1.9e-05,1,29.0901,0.00280901,0.00280901,0.0154958,-0.0126868
2e-05,1,13.5943,0.00125943,0.00125943,0.0430363,-0.0417768
2.1e-05,1,-29.4419,-0.00304419,-0.00304419,0.0523269,-0.0553711
2.2e-05,1,-81.7689,-0.00827689,-0.00827689,0.0176523,-0.0259292
2.3e-05,1,-99.4212,-0.0100421,-0.0100421,-0.0658818,0.0558397
2.4e-05,1,-33.5394,-0.00345394,-0.00345394,-0.158715,0.155261
2.5e-05,1,125.175,0.0124175,0.0124175,-0.176383,0.1888
2.6e-05,1,301.558,0.0300558,0.0300558,-0.033569,0.0636248
2.7e-05,1,335.127,0.0334127,0.0334127,0.271346,-0.237933
2.8e-05,1,63.7811,0.00627811,0.00627811,0.579339,-0.57306
2.9e-05,1,-515.558,-0.0516558,-0.0516558,0.585186,-0.636842
3e-05,1,-1100.74,-0.110174,-0.110174,0.0111097,-0.121284
3.1e-05,1,-1111.85,-0.111285,-0.111285,-1.09074,0.979459
3.2e-05,1,-21.1085,-0.00221085,-0.00221085,-2.09352,2.09131
3.3e-05,1,2072.41,0.207141,0.207141,-1.90528,2.11242
3.4e-05,1,3977.69,0.397669,0.397669,0.357663,0.0400061
3.5e-05,1,3620.03,0.361903,0.361903,4.29959,-3.93769
3.6e-05,1,-679.56,-0.068056,-0.068056,7.48966,-7.55772
3.7e-05,1,-8169.22,-0.817022,-0.817022,6.06114,-6.87816
3.8e-05,1,-14230.4,-1.42314,-1.42314,-2.7142,1.29106
3.9e-05,1,-11516.2,-1.15172,-1.15172,-16.6731,15.5214
4e-05,1,5156.98,0.515598,0.515598,-26.522,27.0376
4.1e-05,1,31679,3.1678,3.1678,-18.7128,21.8806
4.2e-05,1,50391.8,5.03908,5.03908,14.8374,-9.79836
4.3e-05,1,35554.3,3.55533,3.55533,63.7455,-60.1901
4.4e-05,1,-28191.1,-2.81921,-2.81921,92.9252,-95.7445
4.5e-05,1,-121116,-12.1117,-12.1117,55.4416,-67.5533
4.6e-05,1,-176558,-17.6559,-17.6559,-71.219,53.5631
4.7e-05,1,-105339,-10.534,-10.534,-240.655,230.121
4.8e-05,1,135316,13.5315,13.5315,-321.929,335.46
4.9e-05,1,457245,45.7244,45.7244,-154.42,200.144
5e-05,1,611664,61.1663,61.1663,318.267,-257.101
5.1e-05,1,293397,29.3396,29.3396,898.104,-868.765
5.2e-05,1,-604707,-60.4708,-60.4708,1101.69,-1162.16
5.3e-05,1,-1.7064e+06,-170.64,-170.64,386.815,-557.455
5.4e-05,1,-2.09321e+06,-209.321,-209.321,-1358.26,1148.94
5.5e-05,1,-734949,-73.495,-73.495,-3315.65,3242.16
5.6e-05,1,2.5807e+06,258.07,258.07,-3719.04,3977.11
5.7e-05,1,6.29974e+06,629.974,629.974,-766.429,1396.4
5.8e-05,1,7.06617e+06,706.617,706.617,5609.95,-4903.34
5.9e-05,1,1.45622e+06,145.621,145.621,12115.1,-11969.5
6e-05,1,-1.06589e+07,-1065.89,-1065.89,12359.8,-13425.7
6.1e-05,1,-2.30187e+07,-2301.87,-2301.87,464.935,-2766.81
6.2e-05,1,-2.34837e+07,-2348.37,-2348.37,-22600.3,20251.9
6.3e-05,1,-883376,-88.3377,-88.3377,-43823.9,43735.6
6.4e-05,1,4.29406e+07,4294.06,4294.06,-40324.9,44619
6.5e-05,1,8.32655e+07,8326.55,8326.55,6648.13,1678.42
6.6e-05,1,7.66173e+07,7661.73,7661.73,89248.8,-81587.1
6.7e-05,1,-1.26315e+07,-1263.15,-1263.15,156941,-158204
6.8e-05,1,-1.69573e+08,-16957.3,-16957.3,128616,-145573
6.9e-05,1,-2.98188e+08,-29818.8,-29818.8,-53818.6,23999.8
7e-05,1,-2.4437e+08,-24437,-24437,-346625,322188
7.1e-05,1,1.02255e+08,10225.5,10225.5,-556332,566558
7.2e-05,1,6.58588e+08,65858.8,65858.8,-398444,464303
7.3e-05,1,1.05703e+09,105703,105703,299988,-194285
7.4e-05,1,7.57043e+08,75704.3,75704.3,1.32702e+06,-1.25132e+06
7.5e-05,1,-5.69978e+08,-56997.8,-56997.8,1.95136e+06,-2.00836e+06
7.6e-05,1,-2.52134e+09,-252134,-252134,1.18625e+06,-1.43838e+06
7.7e-05,1,-3.70759e+09,-370759,-370759,-1.45372e+06,1.08296e+06
7.8e-05,1,-2.25387e+09,-225387,-225387,-5.01593e+06,4.79055e+06
7.9e-05,1,2.76206e+09,276206,276206,-6.76821e+06,7.04442e+06
8e-05,1,9.53027e+09,953027,953027,-3.32933e+06,4.28236e+06
8.1e-05,1,1.28596e+10,1.28596e+06,1.28596e+06,6.53388e+06,-5.24792e+06
8.2e-05,1,6.32573e+09,632573,632573,1.87401e+07,-1.81075e+07
8.3e-05,1,-1.24144e+10,-1.24144e+06,-1.24144e+06,2.31918e+07,-2.44332e+07
8.4e-05,1,-3.56062e+10,-3.56062e+06,-3.56062e+06,8.45826e+06,-1.20189e+07
8.5e-05,1,-4.40644e+10,-4.40644e+06,-4.40644e+06,-2.79937e+07,2.35873e+07
8.6e-05,1,-1.60707e+10,-1.60707e+06,-1.60707e+06,-6.92588e+07,6.76517e+07
8.7e-05,1,5.31881e+10,5.31881e+06,5.31881e+06,-7.84036e+07,8.37224e+07
8.8e-05,1,1.31592e+11,1.31592e+07,1.31592e+07,-1.73751e+07,3.05343e+07
8.9e-05,1,1.48967e+11,1.48967e+07,1.48967e+07,1.15954e+08,-1.01057e+08
9e-05,1,3.30128e+10,3.30128e+06,3.30128e+06,2.53326e+08,-2.50024e+08
9.1e-05,1,-2.20313e+11,-2.20313e+07,-2.20313e+07,2.61006e+08,-2.83037e+08
9.2e-05,1,-4.81319e+11,-4.81319e+07,-4.81319e+07,1.45924e+07,-6.27243e+07
9.3e-05,1,-4.95911e+11,-4.95911e+07,-4.95911e+07,-4.68185e+08,4.18594e+08
9.4e-05,1,-2.77256e+10,-2.77256e+06,-2.77256e+06,-9.17278e+08,9.14505e+08
9.5e-05,1,8.89552e+11,8.89552e+07,8.89552e+07,-8.53276e+08,9.42231e+08
9.6e-05,1,1.74283e+12,1.74283e+08,1.74283e+08,1.21604e+08,5.26787e+07
9.7e-05,1,1.62122e+12,1.62122e+08,1.62122e+08,1.85227e+09,-1.69015e+09
9.8e-05,1,-2.31048e+11,-2.31048e+07,-2.31048e+07,3.28827e+09,-3.31137e+09
9.9e-05,1,-3.51932e+12,-3.51932e+08,-3.51932e+08,2.72839e+09,-3.08033e+09
0.0001,1,-6.24771e+12,-6.24771e+08,-6.24771e+08,-1.06376e+09,4.38991e+08
0.000101,1,-5.18395e+12,-5.18395e+08,-5.18395e+08,-7.2051e+09,6.6867e+09
0.000102,1,2.02115e+12,2.02115e+08,2.02115e+08,-1.16685e+10,1.18706e+10
0.000103,1,1.36897e+13,1.36897e+09,1.36897e+09,-8.48053e+09,9.8495e+09
0.000104,1,2.21702e+13,2.21702e+09,2.21702e+09,6.0572e+09,-3.84018e+09
0.000105,1,1.6113e+13,1.6113e+09,1.6113e+09,2.76217e+10,-2.60104e+10
0.000106,1,-1.15087e+13,-1.15087e+09,-1.15087e+09,4.09725e+10,-4.21234e+10
0.000107,1,-5.24812e+13,-5.24812e+09,-5.24812e+09,2.53666e+10,-3.06147e+10
0.000108,1,-7.78478e+13,-7.78478e+09,-7.78478e+09,-2.96513e+10,2.18665e+10
0.000109,1,-4.81965e+13,-4.81965e+09,-4.81965e+09,-1.04534e+11,9.97143e+10
0.00011,1,5.63374e+13,5.63374e+09,5.63374e+09,-1.42277e+11,1.47911e+11
0.000111,1,1.98615e+14,1.98615e+10,1.98615e+10,-7.1712e+10,9.15734e+10
0.000112,1,2.70327e+14,2.70327e+10,2.70327e+10,1.34074e+11,-1.07041e+11
0.000113,1,1.36253e+14,1.36253e+10,1.36253e+10,3.90993e+11,-3.77368e+11
0.000114,1,-2.5474e+14,-2.5474e+10,-2.5474e+10,4.88146e+11,-5.1362e+11
0.000115,1,-7.42887e+14,-7.42887e+10,-7.42887e+10,1.84592e+11,-2.5888e+11
0.000116,1,-9.27478e+14,-9.27478e+10,-9.27478e+10,-5.76754e+11,4.84006e+11
0.000117,1,-3.50724e+14,-3.50724e+10,-3.50724e+10,-1.44656e+12,1.41148e+12
0.000118,1,1.09583e+15,1.09583e+11,1.09583e+11,-1.65263e+12,1.76221e+12
0.000119,1,2.74846e+15,2.74846e+11,2.74846e+11,-3.9153e+11,6.66376e+11
0.00012,1,3.13999e+15,3.13999e+11,3.13999e+11,2.39608e+12,-2.08208e+12
0.000121,1,7.43907e+14,7.43907e+10,7.43907e+10,5.29646e+12,-5.22207e+12
0.000122,1,-4.55255e+15,-4.55255e+11,-4.55255e+11,5.51072e+12,-5.96598e+12
0.000123,1,-1.00633e+16,-1.00633e+12,-1.00633e+12,4.07095e+11,-1.41342e+12
0.000124,1,-1.04704e+16,-1.04704e+12,-1.04704e+12,-9.69689e+12,8.64985e+12
0.000125,1,-7.7348e+14,-7.7348e+10,-7.7348e+10,-1.91976e+13,1.91202e+13
0.000126,1,1.84241e+16,1.84241e+12,1.84241e+12,-1.80513e+13,1.98937e+13
0.000127,1,3.64754e+16,3.64754e+12,3.64754e+12,2.17793e+12,1.46961e+12
0.000128,1,3.42975e+16,3.42975e+12,3.42975e+12,3.84355e+13,-3.50058e+13
0.000129,1,-4.13806e+15,-4.13806e+11,-4.13806e+11,6.88894e+13,-6.93032e+13
0.00013,1,-7.30275e+16,-7.30275e+12,-7.30275e+12,5.78624e+13,-6.51652e+13
0.000131,1,-1.3089e+17,-1.3089e+13,-1.3089e+13,-2.09513e+13,7.86231e+12
0.000132,1,-1.09939e+17,-1.09939e+13,-1.09939e+13,-1.49746e+14,1.38752e+14
0.000133,1,3.98075e+16,3.98075e+12,3.98075e+12,-2.4471e+14,2.48691e+14
0.000134,1,2.84518e+17,2.84518e+13,2.84518e+13,-1.80432e+14,2.08883e+14
0.000135,1,4.64949e+17,4.64949e+13,4.64949e+13,1.22129e+14,-7.56342e+13
0.000136,1,3.4282e+17,3.4282e+13,3.4282e+13,5.74865e+14,-5.40583e+14
0.000137,1,-2.32045e+17,-2.32045e+13,-2.32045e+13,8.60199e+14,-8.83403e+14
0.000138,1,-1.09224e+18,-1.09224e+14,-1.09224e+14,5.42134e+14,-6.51358e+14
0.000139,1,-1.63438e+18,-1.63438e+14,-1.63438e+14,-6.04324e+14,4.40886e+14
0.00014,1,-1.03005e+18,-1.03005e+14,-1.03005e+14,-2.17827e+15,2.07526e+15
0.000141,1,1.14822e+18,1.14822e+14,1.14822e+14,-2.9905e+15,3.10532e+15
0.000142,1,4.13871e+18,4.13871e+14,4.13871e+14,-1.54323e+15,1.9571e+15
0.000143,1,5.68194e+18,5.68194e+14,5.68194e+14,2.7498e+15,-2.18161e+15
0.000144,1,2.93214e+18,2.93214e+14,2.93214e+14,8.15677e+15,-7.86355e+15
0.000145,1,-5.22463e+18,-5.22463e+14,-5.22463e+14,1.02732e+16,-1.07957e+16
0.000146,1,-1.54979e+19,-1.54979e+15,-1.54979e+15,4.02128e+15,-5.57106e+15
0.000147,1,-1.95191e+19,-1.95191e+15,-1.95191e+15,-1.18787e+16,9.92679e+15
0.000148,1,-7.64043e+18,-7.64043e+14,-7.64043e+14,-3.021e+16,2.94459e+16
0.000149,1,2.25695e+19,2.25695e+15,2.25695e+15,-3.48294e+16,3.70864e+16
0.00015,1,5.73989e+19,5.73989e+15,5.73989e+15,-8.77692e+15,1.45168e+16
0.000151,1,6.61759e+19,6.61759e+15,6.61759e+15,4.94997e+16,-4.28821e+16
0.000152,1,1.66762e+19,1.66762e+15,1.66762e+15,1.10726e+17,-1.09058e+17
0.000153,1,-9.40494e+19,-9.40494e+15,-9.40494e+15,1.16329e+17,-1.25734e+17
0.000154,1,-2.10379e+20,-2.10379e+16,-2.10379e+16,1.06468e+16,-3.16847e+16
0.000155,1,-2.21025e+20,-2.21025e+16,-2.21025e+16,-2.00797e+17,1.78694e+17
0.000156,1,-2.0229e+19,-2.0229e+15,-2.0229e+15,-4.01742e+17,3.99719e+17
0.000157,1,3.81513e+20,3.81513e+16,3.81513e+16,-3.81797e+17,4.19948e+17
0.000158,1,7.6331e+20,7.6331e+16,7.6331e+16,3.7896e+16,3.84351e+16
0.000159,1,7.25414e+20,7.25414e+16,7.25414e+16,7.97417e+17,-7.24875e+17
0.00016,1,-7.20024e+19,-7.20024e+15,-7.20024e+15,1.44309e+18,-1.45029e+18
0.000161,1,-1.51509e+21,-1.51509e+17,-1.51509e+17,1.22678e+18,-1.37829e+18
0.000162,1,-2.74187e+21,-2.74187e+17,-2.74187e+17,-4.10992e+17,1.36805e+17
0.000163,1,-2.33088e+21,-2.33088e+17,-2.33088e+17,-3.11176e+18,2.87867e+18
0.000164,1,7.80884e+20,7.80884e+16,7.80884e+16,-5.13146e+18,5.20955e+18
0.000165,1,5.91235e+21,5.91235e+17,5.91235e+17,-3.83743e+18,4.42867e+18
0.000166,1,9.74978e+21,9.74978e+17,9.74978e+17,2.45866e+18,-1.48368e+18
0.000167,1,7.29113e+21,7.29113e+17,7.29113e+17,1.19626e+19,-1.12335e+19
0.000168,1,-4.67145e+21,-4.67145e+17,-4.67145e+17,1.80574e+19,-1.85246e+19
0.000169,1,-2.27289e+22,-2.27289e+18,-2.27289e+18,1.15802e+19,-1.38531e+19
0.00017,1,-3.43091e+22,-3.43091e+18,-3.43091e+18,-1.23067e+19,8.87575e+18
0.000171,1,-2.20025e+22,-2.20025e+18,-2.20025e+18,-4.53851e+19,4.31849e+19
0.000172,1,2.33827e+22,2.33827e+18,2.33827e+18,-6.28491e+19,6.51874e+19
0.000173,1,8.62318e+22,8.62318e+18,8.62318e+18,-3.31815e+19,4.18047e+19
0.000174,1,1.19413e+23,1.19413e+19,1.19413e+19,5.63684e+19,-4.44271e+19
0.000175,1,6.30449e+22,6.30449e+18,6.30449e+18,1.70145e+20,-1.6384e+20
0.000176,1,-1.071e+23,-1.071e+19,-1.071e+19,2.16175e+20,-2.26885e+20
0.000177,1,-3.23275e+23,-3.23275e+19,-3.23275e+19,8.74578e+19,-1.19785e+20
0.000178,1,-4.10733e+23,-4.10733e+19,-4.10733e+19,-2.44563e+20,2.0349e+20
0.000179,1,-1.6617e+23,-1.6617e+19,-1.6617e+19,-6.3084e+20,6.14223e+20
0.00018,1,4.6467e+23,4.6467e+19,4.6467e+19,-7.33926e+20,7.80393e+20
0.000181,1,1.1986e+24,1.1986e+20,1.1986e+20,-1.95863e+20,3.15723e+20
0.000182,1,1.39446e+24,1.39446e+20,1.39446e+20,1.02232e+21,-8.82873e+20
0.000183,1,3.7214e+23,3.7214e+19,3.7214e+19,2.31455e+21,-2.27733e+21
0.000184,1,-1.94241e+24,-1.94241e+20,-1.94241e+20,2.45523e+21,-2.64947e+21
0.000185,1,-4.39764e+24,-4.39764e+20,-4.39764e+20,2.67302e+20,-7.07065e+20
0.000186,1,-4.66494e+24,-4.66494e+20,-4.66494e+20,-4.15707e+21,3.69057e+21
0.000187,1,-5.07873e+23,-5.07873e+19,-5.07873e+19,-8.4063e+21,8.35551e+21
0.000188,1,7.89843e+24,7.89843e+20,7.89843e+20,-8.07354e+21,8.86338e+21
0.000189,1,1.5972e+25,1.5972e+21,1.5972e+21,6.32238e+20,9.64959e+20
0.00019,1,1.53397e+25,1.53397e+21,1.53397e+21,1.6541e+22,-1.5007e+22
0.000191,1,-1.20125e+24,-1.20125e+20,-1.20125e+20,3.02266e+22,-3.03467e+22
0.000192,1,-3.14279e+25,-3.14279e+21,-3.14279e+21,2.60027e+22,-2.91455e+22
0.000193,1,-5.74306e+25,-5.74306e+21,-5.74306e+21,-8.02544e+21,2.28238e+21
0.000194,1,-4.94051e+25,-4.94051e+21,-4.94051e+21,-6.46535e+22,5.97129e+22
0.000195,1,1.52483e+25,1.52483e+21,1.52483e+21,-1.07593e+23,1.09118e+23
0.000196,1,1.22842e+26,1.22842e+22,1.22842e+22,-8.15856e+22,9.38697e+22
0.000197,1,2.04427e+26,2.04427e+22,2.04427e+22,4.94145e+22,-2.89718e+22
0.000198,1,1.55013e+26,1.55013e+22,1.55013e+22,2.489e+23,-2.33399e+23
0.000199,1,-9.38876e+25,-9.38876e+21,-9.38876e+21,3.79023e+23,-3.88412e+23
0.0002,1,-4.7291e+26,-4.7291e+22,-4.7291e+22,2.47233e+23,-2.94524e+23
0.000201,1,-7.20143e+26,-7.20143e+22,-7.20143e+22,-2.50401e+23,1.78386e+23
0.000202,1,-4.69743e+26,-4.69743e+22,-4.69743e+22,-9.45504e+23,8.9853e+23
0.000203,1,4.75762e+26,4.75762e+22,4.75762e+22,-1.3207e+24,1.36827e+24
0.000204,1,1.79646e+27,1.79646e+23,1.79646e+23,-7.12865e+23,8.92511e+23
0.000205,1,2.50932e+27,2.50932e+23,2.50932e+23,1.15488e+24,-9.03947e+23
0.000206,1,1.35444e+27,1.35444e+23,1.35444e+23,3.54871e+24,-3.41327e+24
0.000207,1,-2.19427e+27,-2.19427e+23,-2.19427e+23,4.54829e+24,-4.76771e+24
0.000208,1,-6.74256e+27,-6.74256e+23,-6.74256e+23,1.89919e+24,-2.57344e+24
0.000209,1,-8.64174e+27,-8.64174e+23,-8.64174e+23,-5.03329e+24,4.16911e+24
0.00021,1,-3.60846e+27,-3.60846e+23,-3.60846e+23,-1.31717e+25,1.28109e+25
0.000211,1,9.56325e+27,9.56325e+23,9.56325e+23,-1.5463e+25,1.64193e+25
0.000212,1,2.50262e+28,2.50262e+24,2.50262e+24,-4.35344e+24,6.85607e+24
0.000213,1,2.93797e+28,2.93797e+24,2.93797e+24,2.11081e+25,-1.81702e+25
0.000214,1,8.27154e+27,8.27154e+23,8.27154e+23,4.8377e+25,-4.75499e+25
0.000215,1,-4.01055e+28,-4.01055e+24,-4.01055e+24,5.18108e+25,-5.58214e+25
0.000216,1,-9.19163e+28,-9.19163e+24,-9.19163e+24,6.5243e+24,-1.57159e+25
0.000217,1,-9.84406e+28,-9.84406e+24,-9.84406e+24,-8.60444e+25,7.62004e+25
0.000218,1,-1.23962e+28,-1.23962e+24,-1.23962e+24,-1.75881e+26,1.74641e+26
0.000219,1,1.63484e+29,1.63484e+25,1.63484e+25,-1.70689e+26,1.87037e+26
0.00022,1,3.34173e+29,3.34173e+25,3.34173e+25,9.86461e+24,2.35527e+25
0.000221,1,3.24309e+29,3.24309e+25,3.24309e+25,3.43051e+26,-3.1062e+26
0.000222,1,-1.87428e+28,-1.87428e+24,-1.87428e+24,6.33055e+26,-6.34929e+26
0.000223,1,-6.51797e+29,-6.51797e+25,-6.51797e+25,5.51006e+26,-6.16186e+26
0.000224,1,-1.2028e+30,-1.2028e+26,-1.2028e+26,-1.55892e+26,3.56112e+25
0.000225,1,-1.04691e+30,-1.04691e+26,-1.04691e+26,-1.34311e+27,1.23842e+27
0.000226,1,2.96194e+29,2.96194e+25,2.96194e+25,-2.25571e+27,2.28533e+27
0.000227,1,2.5519e+30,2.5519e+26,2.5519e+26,-1.73394e+27,1.98913e+27
0.000228,1,4.28585e+30,4.28585e+26,4.28585e+26,9.91353e+26,-5.62769e+26
0.000229,1,3.29449e+30,3.29449e+26,3.29449e+26,5.17806e+27,-4.84861e+27
0.00023,1,-1.88357e+30,-1.88357e+26,-1.88357e+26,7.95475e+27,-8.14311e+27
0.000231,1,-9.83832e+30,-9.83832e+26,-9.83832e+26,5.2757e+27,-6.25954e+27
0.000232,1,-1.5114e+31,-1.5114e+27,-1.5114e+27,-5.09019e+27,3.57879e+27
0.000233,1,-1.00238e+31,-1.00238e+27,-1.00238e+27,-1.96952e+28,1.86928e+28
0.000234,1,9.67136e+30,9.67136e+26,9.67136e+26,-2.77495e+28,2.87166e+28
0.000235,1,3.74209e+31,3.74209e+27,3.74209e+27,-1.53032e+28,1.90453e+28
0.000236,1,5.27241e+31,5.27241e+27,5.27241e+27,2.3648e+28,-1.83756e+28
0.000237,1,2.90761e+31,2.90761e+27,2.90761e+27,7.40073e+28,-7.10996e+28
0.000238,1,-4.49312e+31,-4.49312e+27,-4.49312e+27,9.56826e+28,-1.00176e+29
0.000239,1,-1.40614e+32,-1.40614e+28,-1.40614e+28,4.11832e+28,-5.52446e+28
0.00024,1,-1.81797e+32,-1.81797e+28,-1.81797e+28,-1.03549e+29,8.53692e+28
0.000241,1,-7.8248e+31,-7.8248e+27,-7.8248e+27,-2.74991e+29,2.67166e+29
0.000242,1,1.96743e+32,1.96743e+28,1.96743e+28,-3.2574e+29,3.45414e+29
0.000243,1,5.22483e+32,5.22483e+28,5.22483e+28,-9.6423e+28,1.48671e+29
0.000244,1,6.18906e+32,6.18906e+28,6.18906e+28,4.35702e+29,-3.73812e+29
0.000245,1,1.83204e+32,1.83204e+28,1.83204e+28,1.01104e+30,-9.92717e+29
0.000246,1,-8.27834e+32,-8.27834e+28,-8.27834e+28,1.09314e+30,-1.17592e+30
0.000247,1,-1.92097e+33,-1.92097e+29,-1.92097e+29,1.5599e+29,-3.48087e+29
0.000248,1,-2.07696e+33,-2.07696e+29,-2.07696e+29,-1.78058e+30,1.57288e+30
0.000249,1,-2.96381e+32,-2.96381e+28,-2.96381e+28,-3.67948e+30,3.64985e+30
0.00025,1,3.3831e+33,3.3831e+29,3.3831e+29,-3.60792e+30,3.94623e+30
0.000251,1,6.99102e+33,6.99102e+29,6.99102e+29,1.35979e+29,5.63123e+29
0.000252,1,6.85504e+33,6.85504e+29,6.85504e+29,7.1134e+30,-6.4279e+30
0.000253,1,-2.5836e+32,-2.5836e+28,-2.5836e+28,1.32571e+31,-1.32829e+31
0.000254,1,-1.35155e+34,-1.35155e+30,-1.35155e+30,1.1673e+31,-1.30246e+31
0.000255,1,-2.51885e+34,-2.51885e+30,-2.51885e+30,-3.00973e+30,4.90884e+29
0.000256,1,-2.21788e+34,-2.21788e+30,-2.21788e+30,-2.78973e+31,2.56794e+31
0.000257,1,5.71849e+33,5.71849e+29,5.71849e+29,-4.72863e+31,4.78581e+31
0.000258,1,5.30048e+34,5.30048e+30,5.30048e+30,-3.68392e+31,4.21396e+31
0.000259,1,8.9844e+34,8.9844e+30,8.9844e+30,1.98495e+31,-1.08651e+31
0.00026,1,6.99944e+34,6.99944e+30,6.99944e+30,1.07709e+32,-1.00709e+32
0.000261,1,-3.77141e+34,-3.77141e+30,-3.77141e+30,1.66932e+32,-1.70704e+32
0.000262,1,-2.04646e+35,-2.04646e+31,-2.04646e+31,1.12525e+32,-1.32989e+32
0.000263,1,-3.17171e+35,-3.17171e+31,-3.17171e+31,-1.03374e+32,7.16568e+31
0.000264,1,-2.13797e+35,-2.13797e+31,-2.13797e+31,-4.10208e+32,3.88828e+32
0.000265,1,1.9641e+35,1.9641e+31,1.9641e+31,-5.82984e+32,6.02625e+32
0.000266,1,7.79394e+35,7.79394e+31,7.79394e+31,-3.28275e+32,4.06214e+32
0.000267,1,1.10767e+36,1.10767e+32,1.10767e+32,4.83947e+32,-3.7318e+32
0.000268,1,6.23723e+35,6.23723e+31,6.23723e+31,1.54322e+33,-1.48085e+33
0.000269,1,-9.19499e+35,-9.19499e+31,-9.19499e+31,2.01262e+33,-2.10457e+33
0.00027,1,-2.93212e+36,-2.93212e+32,-2.93212e+32,8.91861e+32,-1.18507e+33
0.000271,1,-3.82398e+36,-3.82398e+32,-3.82398e+32,-2.12945e+33,1.74705e+33
0.000272,1,-1.69454e+36,-1.69454e+32,-1.69454e+32,-5.74048e+33,5.57103e+33
0.000273,1,4.04595e+36,4.04595e+32,4.04595e+32,-6.86097e+33,7.26557e+33
0.000274,1,1.09069e+37,1.09069e+33,1.09069e+33,-2.12893e+33,3.21962e+33
0.000275,1,1.30358e+37,1.30358e+33,1.30358e+33,8.99088e+33,-7.6873e+33
0.000276,1,4.04496e+36,4.04496e+32,4.04496e+32,2.11276e+34,-2.07231e+34
0.000277,1,-1.70827e+37,-1.70827e+33,-1.70827e+33,2.30598e+34,-2.47681e+34
0.000278,1,-4.01425e+37,-4.01425e+33,-4.01425e+33,3.67117e+33,-7.68542e+33
0.000279,1,-4.38137e+37,-4.38137e+33,-4.38137e+33,-3.68385e+34,3.24571e+34
0.00028,1,-6.97522e+36,-6.97522e+32,-6.97522e+32,-7.69683e+34,7.62708e+34
0.000281,1,6.99931e+37,6.99931e+33,6.99931e+33,-7.62467e+34,8.3246e+34
0.000282,1,1.4624e+38,1.4624e+34,1.4624e+34,1.37105e+33,1.32529e+34
0.000283,1,1.44869e+38,1.44869e+34,1.44869e+34,1.47474e+35,-1.32987e+35
0.000284,1,-2.605e+36,-2.605e+32,-2.605e+32,2.77595e+35,-2.77856e+35
0.000285,1,-2.802e+38,-2.802e+34,-2.802e+34,2.47231e+35,-2.75251e+35
0.000286,1,-5.27431e+38,-5.27431e+34,-5.27431e+34,-5.76926e+34,4.9495e+33
0.000287,1,-4.69738e+38,-4.69738e+34,-4.69738e+34,-5.79354e+35,5.3238e+35
0.000288,1,1.09616e+38,1.09616e+34,1.09616e+34,-9.91157e+35,1.00212e+36
0.000289,1,1.10077e+39,1.10077e+35,1.10077e+35,-7.82425e+35,8.92502e+35
0.00029,1,1.8832e+39,1.8832e+35,1.8832e+35,3.9659e+35,-2.0827e+35
0.000291,1,1.48661e+39,1.48661e+35,1.48661e+35,2.24013e+36,-2.09147e+36
