time,V(N001),I(V1),I(R1),I(D1)
0,2,-5.54062e+19,-0.0002,5.54062e+19
1e-07,2.00063,-5.68164e+19,-0.000200063,5.68164e+19
2e-07,2.00126,-5.82624e+19,-0.000200126,5.82624e+19
3e-07,2.00188,-5.97453e+19,-0.000200188,5.97453e+19
4e-07,2.00251,-6.12659e+19,-0.000200251,6.12659e+19
5e-07,2.00314,-6.28251e+19,-0.000200314,6.28251e+19
6e-07,2.00377,-6.44241e+19,-0.000200377,6.44241e+19
7e-07,2.0044,-6.60638e+19,-0.00020044,6.60638e+19
8e-07,2.00503,-6.77452e+19,-0.000200503,6.77452e+19
9e-07,2.00565,-6.94693e+19,-0.000200565,6.94693e+19
1e-06,2.00628,-7.12374e+19,-0.000200628,7.12374e+19
1.1e-06,2.00691,-7.30504e+19,-0.000200691,7.30504e+19
1.2e-06,2.00754,-7.49096e+19,-0.000200754,7.49096e+19
1.3e-06,2.00817,-7.68161e+19,-0.000200817,7.68161e+19
1.4e-06,2.0088,-7.87711e+19,-0.00020088,7.87711e+19
1.5e-06,2.00942,-8.07758e+19,-0.000200942,8.07758e+19
1.6e-06,2.01005,-8.28315e+19,-0.000201005,8.28315e+19
1.7e-06,2.01068,-8.49396e+19,-0.000201068,8.49396e+19
1.8e-06,2.01131,-8.71013e+19,-0.000201131,8.71013e+19
1.9e-06,2.01194,-8.9318e+19,-0.000201194,8.9318e+19
2e-06,2.01257,-9.1591e+19,-0.000201257,9.1591e+19
2.1e-06,2.01319,-9.3922e+19,-0.000201319,9.3922e+19
2.2e-06,2.01382,-9.63122e+19,-0.000201382,9.63122e+19
2.3e-06,2.01445,-9.87632e+19,-0.000201445,9.87632e+19
2.4e-06,2.01508,-1.01277e+20,-0.000201508,1.01277e+20
2.5e-06,2.01571,-1.03854e+20,-0.000201571,1.03854e+20
2.6e-06,2.01634,-1.06497e+20,-0.000201634,1.06497e+20
2.7e-06,2.01696,-1.09207e+20,-0.000201696,1.09207e+20
2.8e-06,2.01759,-1.11986e+20,-0.000201759,1.11986e+20
2.9e-06,2.01822,-1.14836e+20,-0.000201822,1.14836e+20
3e-06,2.01885,-1.17758e+20,-0.000201885,1.17758e+20
3.1e-06,2.01948,-1.20754e+20,-0.000201948,1.20754e+20
3.2e-06,2.0201,-1.23827e+20,-0.00020201,1.23827e+20
3.3e-06,2.02073,-1.26978e+20,-0.000202073,1.26978e+20
3.4e-06,2.02136,-1.30209e+20,-0.000202136,1.30209e+20
3.5e-06,2.02199,-1.33522e+20,-0.000202199,1.33522e+20
3.6e-06,2.02262,-1.3692e+20,-0.000202262,1.3692e+20
3.7e-06,2.02325,-1.40403e+20,-0.000202325,1.40403e+20
3.8e-06,2.02387,-1.43976e+20,-0.000202387,1.43976e+20
3.9e-06,2.0245,-1.47639e+20,-0.00020245,1.47639e+20
4e-06,2.02513,-1.51396e+20,-0.000202513,1.51396e+20
4.1e-06,2.02576,-1.55247e+20,-0.000202576,1.55247e+20
4.2e-06,2.02639,-1.59197e+20,-0.000202639,1.59197e+20
4.3e-06,2.02701,-1.63248e+20,-0.000202701,1.63248e+20
4.4e-06,2.02764,-1.67401e+20,-0.000202764,1.67401e+20
4.5e-06,2.02827,-1.7166e+20,-0.000202827,1.7166e+20
4.6e-06,2.0289,-1.76027e+20,-0.00020289,1.76027e+20
4.7e-06,2.02953,-1.80505e+20,-0.000202953,1.80505e+20
4.8e-06,2.03015,-1.85097e+20,-0.000203015,1.85097e+20
4.9e-06,2.03078,-1.89806e+20,-0.000203078,1.89806e+20
5e-06,2.03141,-1.94634e+20,-0.000203141,1.94634e+20
5.1e-06,2.03204,-1.99585e+20,-0.000203204,1.99585e+20
5.2e-06,2.03267,-2.04662e+20,-0.000203267,2.04662e+20
5.3e-06,2.03329,-2.09868e+20,-0.000203329,2.09868e+20
5.4e-06,2.03392,-2.15207e+20,-0.000203392,2.15207e+20
5.5e-06,2.03455,-2.20681e+20,-0.000203455,2.20681e+20
5.6e-06,2.03518,-2.26294e+20,-0.000203518,2.26294e+20
5.7e-06,2.03581,-2.3205e+20,-0.000203581,2.3205e+20
5.8e-06,2.03643,-2.37952e+20,-0.000203643,2.37952e+20
5.9e-06,2.03706,-2.44004e+20,-0.000203706,2.44004e+20
6e-06,2.03769,-2.5021e+20,-0.000203769,2.5021e+20
6.1e-06,2.03832,-2.56573e+20,-0.000203832,2.56573e+20
6.2e-06,2.03895,-2.63098e+20,-0.000203895,2.63098e+20
6.3e-06,2.03957,-2.69789e+20,-0.000203957,2.69789e+20
6.4e-06,2.0402,-2.7665e+20,-0.00020402,2.7665e+20
6.5e-06,2.04083,-2.83685e+20,-0.000204083,2.83685e+20
6.6e-06,2.04146,-2.90899e+20,-0.000204146,2.90899e+20
6.7e-06,2.04208,-2.98297e+20,-0.000204208,2.98297e+20
6.8e-06,2.04271,-3.05882e+20,-0.000204271,3.05882e+20
6.9e-06,2.04334,-3.13659e+20,-0.000204334,3.13659e+20
7e-06,2.04397,-3.21635e+20,-0.000204397,3.21635e+20
7.1e-06,2.0446,-3.29813e+20,-0.00020446,3.29813e+20
7.2e-06,2.04522,-3.38198e+20,-0.000204522,3.38198e+20
7.3e-06,2.04585,-3.46797e+20,-0.000204585,3.46797e+20
7.4e-06,2.04648,-3.55614e+20,-0.000204648,3.55614e+20
7.5e-06,2.04711,-3.64654e+20,-0.000204711,3.64654e+20
7.6e-06,2.04773,-3.73925e+20,-0.000204773,3.73925e+20
7.7e-06,2.04836,-3.8343e+20,-0.000204836,3.8343e+20
7.8e-06,2.04899,-3.93177e+20,-0.000204899,3.93177e+20
7.9e-06,2.04962,-4.03172e+20,-0.000204962,4.03172e+20
8e-06,2.05024,-4.1342e+20,-0.000205024,4.1342e+20
8.1e-06,2.05087,-4.23929e+20,-0.000205087,4.23929e+20
8.2e-06,2.0515,-4.34704e+20,-0.00020515,4.34704e+20
8.3e-06,2.05213,-4.45753e+20,-0.000205213,4.45753e+20
8.4e-06,2.05275,-4.57082e+20,-0.000205275,4.57082e+20
8.5e-06,2.05338,-4.68698e+20,-0.000205338,4.68698e+20
8.6e-06,2.05401,-4.8061e+20,-0.000205401,4.8061e+20
8.7e-06,2.05464,-4.92824e+20,-0.000205464,4.92824e+20
8.8e-06,2.05526,-5.05348e+20,-0.000205526,5.05348e+20
8.9e-06,2.05589,-5.18189e+20,-0.000205589,5.18189e+20
9e-06,2.05652,-5.31357e+20,-0.000205652,5.31357e+20
9.1e-06,2.05715,-5.44858e+20,-0.000205715,5.44858e+20
9.2e-06,2.05777,-5.58702e+20,-0.000205777,5.58702e+20
9.3e-06,2.0584,-5.72898e+20,-0.00020584,5.72898e+20
9.4e-06,2.05903,-5.87453e+20,-0.000205903,5.87453e+20
9.5e-06,2.05965,-6.02378e+20,-0.000205965,6.02378e+20
9.6e-06,2.06028,-6.17681e+20,-0.000206028,6.17681e+20
9.7e-06,2.06091,-6.33373e+20,-0.000206091,6.33373e+20
9.8e-06,2.06154,-6.49462e+20,-0.000206154,6.49462e+20
9.9e-06,2.06216,-6.6596e+20,-0.000206216,6.6596e+20
1e-05,2.06279,-6.82876e+20,-0.000206279,6.82876e+20
1.01e-05,2.06342,-7.00221e+20,-0.000206342,7.00221e+20
1.02e-05,2.06404,-7.18005e+20,-0.000206404,7.18005e+20
1.03e-05,2.06467,-7.36241e+20,-0.000206467,7.36241e+20
1.04e-05,2.0653,-7.54939e+20,-0.00020653,7.54939e+20
1.05e-05,2.06593,-7.74111e+20,-0.000206593,7.74111e+20
1.06e-05,2.06655,-7.9377e+20,-0.000206655,7.9377e+20
1.07e-05,2.06718,-8.13926e+20,-0.000206718,8.13926e+20
1.08e-05,2.06781,-8.34594e+20,-0.000206781,8.34594e+20
1.09e-05,2.06843,-8.55785e+20,-0.000206843,8.55785e+20
1.1e-05,2.06906,-8.77514e+20,-0.000206906,8.77514e+20
1.11e-05,2.06969,-8.99793e+20,-0.000206969,8.99793e+20
1.12e-05,2.07031,-9.22637e+20,-0.000207031,9.22637e+20
1.13e-05,2.07094,-9.4606e+20,-0.000207094,9.4606e+20
1.14e-05,2.07157,-9.70077e+20,-0.000207157,9.70077e+20
1.15e-05,2.07219,-9.94702e+20,-0.000207219,9.94702e+20
1.16e-05,2.07282,-1.01995e+21,-0.000207282,1.01995e+21
1.17e-05,2.07345,-1.04584e+21,-0.000207345,1.04584e+21
1.18e-05,2.07407,-1.07238e+21,-0.000207407,1.07238e+21
1.19e-05,2.0747,-1.0996e+21,-0.00020747,1.0996e+21
1.2e-05,2.07533,-1.12751e+21,-0.000207533,1.12751e+21
1.21e-05,2.07595,-1.15612e+21,-0.000207595,1.15612e+21
1.22e-05,2.07658,-1.18546e+21,-0.000207658,1.18546e+21
1.23e-05,2.07721,-1.21554e+21,-0.000207721,1.21554e+21
1.24e-05,2.07783,-1.24638e+21,-0.000207783,1.24638e+21
1.25e-05,2.07846,-1.27801e+21,-0.000207846,1.27801e+21
1.26e-05,2.07909,-1.31043e+21,-0.000207909,1.31043e+21
1.27e-05,2.07971,-1.34368e+21,-0.000207971,1.34368e+21
1.28e-05,2.08034,-1.37776e+21,-0.000208034,1.37776e+21
1.29e-05,2.08096,-1.41271e+21,-0.000208096,1.41271e+21
1.3e-05,2.08159,-1.44855e+21,-0.000208159,1.44855e+21
1.31e-05,2.08222,-1.48529e+21,-0.000208222,1.48529e+21
1.32e-05,2.08284,-1.52296e+21,-0.000208284,1.52296e+21
1.33e-05,2.08347,-1.56159e+21,-0.000208347,1.56159e+21
1.34e-05,2.0841,-1.60119e+21,-0.00020841,1.60119e+21
1.35e-05,2.08472,-1.64179e+21,-0.000208472,1.64179e+21
1.36e-05,2.08535,-1.68343e+21,-0.000208535,1.68343e+21
1.37e-05,2.08597,-1.72611e+21,-0.000208597,1.72611e+21
1.38e-05,2.0866,-1.76988e+21,-0.00020866,1.76988e+21
1.39e-05,2.08723,-1.81475e+21,-0.000208723,1.81475e+21
1.4e-05,2.08785,-1.86076e+21,-0.000208785,1.86076e+21
1.41e-05,2.08848,-1.90793e+21,-0.000208848,1.90793e+21
1.42e-05,2.0891,-1.9563e+21,-0.00020891,1.9563e+21
1.43e-05,2.08973,-2.00588e+21,-0.000208973,2.00588e+21
1.44e-05,2.09035,-2.05673e+21,-0.000209035,2.05673e+21
1.45e-05,2.09098,-2.10885e+21,-0.000209098,2.10885e+21
1.46e-05,2.09161,-2.1623e+21,-0.000209161,2.1623e+21
1.47e-05,2.09223,-2.2171e+21,-0.000209223,2.2171e+21
1.48e-05,2.09286,-2.27328e+21,-0.000209286,2.27328e+21
1.49e-05,2.09348,-2.33088e+21,-0.000209348,2.33088e+21
1.5e-05,2.09411,-2.38994e+21,-0.000209411,2.38994e+21
1.51e-05,2.09473,-2.45049e+21,-0.000209473,2.45049e+21
1.52e-05,2.09536,-2.51258e+21,-0.000209536,2.51258e+21
1.53e-05,2.09598,-2.57623e+21,-0.000209598,2.57623e+21
1.54e-05,2.09661,-2.64149e+21,-0.000209661,2.64149e+21
1.55e-05,2.09724,-2.7084e+21,-0.000209724,2.7084e+21
1.56e-05,2.09786,-2.77699e+21,-0.000209786,2.77699e+21
1.57e-05,2.09849,-2.84733e+21,-0.000209849,2.84733e+21
1.58e-05,2.09911,-2.91944e+21,-0.000209911,2.91944e+21
1.59e-05,2.09974,-2.99337e+21,-0.000209974,2.99337e+21
1.6e-05,2.10036,-3.06916e+21,-0.000210036,3.06916e+21
1.61e-05,2.10099,-3.14688e+21,-0.000210099,3.14688e+21
1.62e-05,2.10161,-3.22655e+21,-0.000210161,3.22655e+21
1.63e-05,2.10224,-3.30824e+21,-0.000210224,3.30824e+21
1.64e-05,2.10286,-3.39199e+21,-0.000210286,3.39199e+21
1.65e-05,2.10349,-3.47785e+21,-0.000210349,3.47785e+21
1.66e-05,2.10411,-3.56588e+21,-0.000210411,3.56588e+21
1.67e-05,2.10474,-3.65614e+21,-0.000210474,3.65614e+21
1.68e-05,2.10536,-3.74867e+21,-0.000210536,3.74867e+21
1.69e-05,2.10599,-3.84353e+21,-0.000210599,3.84353e+21
1.7e-05,2.10661,-3.9408e+21,-0.000210661,3.9408e+21
1.71e-05,2.10724,-4.04051e+21,-0.000210724,4.04051e+21
1.72e-05,2.10786,-4.14274e+21,-0.000210786,4.14274e+21
1.73e-05,2.10849,-4.24756e+21,-0.000210849,4.24756e+21
1.74e-05,2.10911,-4.35501e+21,-0.000210911,4.35501e+21
1.75e-05,2.10973,-4.46518e+21,-0.000210973,4.46518e+21
1.76e-05,2.11036,-4.57812e+21,-0.000211036,4.57812e+21
1.77e-05,2.11098,-4.69392e+21,-0.000211098,4.69392e+21
1.78e-05,2.11161,-4.81263e+21,-0.000211161,4.81263e+21
1.79e-05,2.11223,-4.93434e+21,-0.000211223,4.93434e+21
1.8e-05,2.11286,-5.05912e+21,-0.000211286,5.05912e+21
1.81e-05,2.11348,-5.18704e+21,-0.000211348,5.18704e+21
1.82e-05,2.1141,-5.31819e+21,-0.00021141,5.31819e+21
1.83e-05,2.11473,-5.45264e+21,-0.000211473,5.45264e+21
1.84e-05,2.11535,-5.59049e+21,-0.000211535,5.59049e+21
1.85e-05,2.11598,-5.7318e+21,-0.000211598,5.7318e+21
1.86e-05,2.1166,-5.87668e+21,-0.00021166,5.87668e+21
1.87e-05,2.11723,-6.02521e+21,-0.000211723,6.02521e+21
1.88e-05,2.11785,-6.17749e+21,-0.000211785,6.17749e+21
1.89e-05,2.11847,-6.3336e+21,-0.000211847,6.3336e+21
1.9e-05,2.1191,-6.49364e+21,-0.00021191,6.49364e+21
1.91e-05,2.11972,-6.65771e+21,-0.000211972,6.65771e+21
1.92e-05,2.12034,-6.82592e+21,-0.000212034,6.82592e+21
1.93e-05,2.12097,-6.99836e+21,-0.000212097,6.99836e+21
1.94e-05,2.12159,-7.17515e+21,-0.000212159,7.17515e+21
1.95e-05,2.12222,-7.35639e+21,-0.000212222,7.35639e+21
1.96e-05,2.12284,-7.54219e+21,-0.000212284,7.54219e+21
1.97e-05,2.12346,-7.73266e+21,-0.000212346,7.73266e+21
1.98e-05,2.12409,-7.92794e+21,-0.000212409,7.92794e+21
1.99e-05,2.12471,-8.12813e+21,-0.000212471,8.12813e+21
2e-05,2.12533,-8.33335e+21,-0.000212533,8.33335e+21
2.01e-05,2.12596,-8.54375e+21,-0.000212596,8.54375e+21
2.02e-05,2.12658,-8.75943e+21,-0.000212658,8.75943e+21
2.03e-05,2.1272,-8.98055e+21,-0.00021272,8.98055e+21
2.04e-05,2.12783,-9.20722e+21,-0.000212783,9.20722e+21
2.05e-05,2.12845,-9.4396e+21,-0.000212845,9.4396e+21
2.06e-05,2.12907,-9.67783e+21,-0.000212907,9.67783e+21
2.07e-05,2.1297,-9.92204e+21,-0.00021297,9.92204e+21
2.08e-05,2.13032,-1.01724e+22,-0.000213032,1.01724e+22
2.09e-05,2.13094,-1.04291e+22,-0.000213094,1.04291e+22
2.1e-05,2.13156,-1.06922e+22,-0.000213156,1.06922e+22
2.11e-05,2.13219,-1.09619e+22,-0.000213219,1.09619e+22
2.12e-05,2.13281,-1.12384e+22,-0.000213281,1.12384e+22
2.13e-05,2.13343,-1.15218e+22,-0.000213343,1.15218e+22
2.14e-05,2.13406,-1.18124e+22,-0.000213406,1.18124e+22
2.15e-05,2.13468,-1.21103e+22,-0.000213468,1.21103e+22
2.16e-05,2.1353,-1.24157e+22,-0.00021353,1.24157e+22
2.17e-05,2.13592,-1.27287e+22,-0.000213592,1.27287e+22
2.18e-05,2.13655,-1.30496e+22,-0.000213655,1.30496e+22
2.19e-05,2.13717,-1.33786e+22,-0.000213717,1.33786e+22
2.2e-05,2.13779,-1.37158e+22,-0.000213779,1.37158e+22
2.21e-05,2.13841,-1.40615e+22,-0.000213841,1.40615e+22
2.22e-05,2.13903,-1.44159e+22,-0.000213903,1.44159e+22
2.23e-05,2.13966,-1.47792e+22,-0.000213966,1.47792e+22
2.24e-05,2.14028,-1.51515e+22,-0.000214028,1.51515e+22
2.25e-05,2.1409,-1.55333e+22,-0.00021409,1.55333e+22
2.26e-05,2.14152,-1.59246e+22,-0.000214152,1.59246e+22
2.27e-05,2.14215,-1.63258e+22,-0.000214215,1.63258e+22
2.28e-05,2.14277,-1.6737e+22,-0.000214277,1.6737e+22
2.29e-05,2.14339,-1.71585e+22,-0.000214339,1.71585e+22
2.3e-05,2.14401,-1.75907e+22,-0.000214401,1.75907e+22
2.31e-05,2.14463,-1.80336e+22,-0.000214463,1.80336e+22
2.32e-05,2.14525,-1.84877e+22,-0.000214525,1.84877e+22
2.33e-05,2.14588,-1.89531e+22,-0.000214588,1.89531e+22
2.34e-05,2.1465,-1.94303e+22,-0.00021465,1.94303e+22
2.35e-05,2.14712,-1.99194e+22,-0.000214712,1.99194e+22
2.36e-05,2.14774,-2.04207e+22,-0.000214774,2.04207e+22
2.37e-05,2.14836,-2.09347e+22,-0.000214836,2.09347e+22
2.38e-05,2.14898,-2.14615e+22,-0.000214898,2.14615e+22
2.39e-05,2.1496,-2.20015e+22,-0.00021496,2.20015e+22
2.4e-05,2.15023,-2.25551e+22,-0.000215023,2.25551e+22
2.41e-05,2.15085,-2.31225e+22,-0.000215085,2.31225e+22
2.42e-05,2.15147,-2.37042e+22,-0.000215147,2.37042e+22
2.43e-05,2.15209,-2.43004e+22,-0.000215209,2.43004e+22
2.44e-05,2.15271,-2.49115e+22,-0.000215271,2.49115e+22
2.45e-05,2.15333,-2.5538e+22,-0.000215333,2.5538e+22
2.46e-05,2.15395,-2.61802e+22,-0.000215395,2.61802e+22
2.47e-05,2.15457,-2.68384e+22,-0.000215457,2.68384e+22
2.48e-05,2.15519,-2.75131e+22,-0.000215519,2.75131e+22
2.49e-05,2.15581,-2.82048e+22,-0.000215581,2.82048e+22
2.5e-05,2.15643,-2.89137e+22,-0.000215643,2.89137e+22
2.51e-05,2.15706,-2.96404e+22,-0.000215706,2.96404e+22
2.52e-05,2.15768,-3.03852e+22,-0.000215768,3.03852e+22
2.53e-05,2.1583,-3.11487e+22,-0.00021583,3.11487e+22
2.54e-05,2.15892,-3.19314e+22,-0.000215892,3.19314e+22
2.55e-05,2.15954,-3.27336e+22,-0.000215954,3.27336e+22
2.56e-05,2.16016,-3.35558e+22,-0.000216016,3.35558e+22
2.57e-05,2.16078,-3.43987e+22,-0.000216078,3.43987e+22
2.58e-05,2.1614,-3.52626e+22,-0.00021614,3.52626e+22
2.59e-05,2.16202,-3.61481e+22,-0.000216202,3.61481e+22
2.6e-05,2.16264,-3.70557e+22,-0.000216264,3.70557e+22
2.61e-05,2.16326,-3.79861e+22,-0.000216326,3.79861e+22
2.62e-05,2.16388,-3.89397e+22,-0.000216388,3.89397e+22
2.63e-05,2.1645,-3.99171e+22,-0.00021645,3.99171e+22
2.64e-05,2.16512,-4.0919e+22,-0.000216512,4.0919e+22
2.65e-05,2.16574,-4.19459e+22,-0.000216574,4.19459e+22
2.66e-05,2.16636,-4.29985e+22,-0.000216636,4.29985e+22
2.67e-05,2.16698,-4.40774e+22,-0.000216698,4.40774e+22
2.68e-05,2.16759,-4.51832e+22,-0.000216759,4.51832e+22
2.69e-05,2.16821,-4.63166e+22,-0.000216821,4.63166e+22
2.7e-05,2.16883,-4.74784e+22,-0.000216883,4.74784e+22
2.71e-05,2.16945,-4.86691e+22,-0.000216945,4.86691e+22
2.72e-05,2.17007,-4.98896e+22,-0.000217007,4.98896e+22
2.73e-05,2.17069,-5.11406e+22,-0.000217069,5.11406e+22
2.74e-05,2.17131,-5.24228e+22,-0.000217131,5.24228e+22
2.75e-05,2.17193,-5.37369e+22,-0.000217193,5.37369e+22
2.76e-05,2.17255,-5.50839e+22,-0.000217255,5.50839e+22
2.77e-05,2.17317,-5.64645e+22,-0.000217317,5.64645e+22
2.78e-05,2.17379,-5.78795e+22,-0.000217379,5.78795e+22
2.79e-05,2.1744,-5.93299e+22,-0.00021744,5.93299e+22
2.8e-05,2.17502,-6.08164e+22,-0.000217502,6.08164e+22
2.81e-05,2.17564,-6.23399e+22,-0.000217564,6.23399e+22
2.82e-05,2.17626,-6.39015e+22,-0.000217626,6.39015e+22
2.83e-05,2.17688,-6.5502e+22,-0.000217688,6.5502e+22
2.84e-05,2.1775,-6.71424e+22,-0.00021775,6.71424e+22
2.85e-05,2.17812,-6.88237e+22,-0.000217812,6.88237e+22
2.86e-05,2.17873,-7.05469e+22,-0.000217873,7.05469e+22
2.87e-05,2.17935,-7.2313e+22,-0.000217935,7.2313e+22
2.88e-05,2.17997,-7.41232e+22,-0.000217997,7.41232e+22
2.89e-05,2.18059,-7.59784e+22,-0.000218059,7.59784e+22
2.9e-05,2.18121,-7.78798e+22,-0.000218121,7.78798e+22
2.91e-05,2.18182,-7.98286e+22,-0.000218182,7.98286e+22
2.92e-05,2.18244,-8.1826e+22,-0.000218244,8.1826e+22
2.93e-05,2.18306,-8.3873e+22,-0.000218306,8.3873e+22
2.94e-05,2.18368,-8.59711e+22,-0.000218368,8.59711e+22
2.95e-05,2.18429,-8.81213e+22,-0.000218429,8.81213e+22
2.96e-05,2.18491,-9.03251e+22,-0.000218491,9.03251e+22
2.97e-05,2.18553,-9.25837e+22,-0.000218553,9.25837e+22
2.98e-05,2.18615,-9.48985e+22,-0.000218615,9.48985e+22
2.99e-05,2.18676,-9.72709e+22,-0.000218676,9.72709e+22
3e-05,2.18738,-9.97023e+22,-0.000218738,9.97023e+22
3.01e-05,2.188,-1.02194e+23,-0.0002188,1.02194e+23
3.02e-05,2.18862,-1.04748e+23,-0.000218862,1.04748e+23
3.03e-05,2.18923,-1.07365e+23,-0.000218923,1.07365e+23
3.04e-05,2.18985,-1.10048e+23,-0.000218985,1.10048e+23
3.05e-05,2.19047,-1.12797e+23,-0.000219047,1.12797e+23
3.06e-05,2.19108,-1.15614e+23,-0.000219108,1.15614e+23
3.07e-05,2.1917,-1.18502e+23,-0.00021917,1.18502e+23
3.08e-05,2.19232,-1.21461e+23,-0.000219232,1.21461e+23
3.09e-05,2.19293,-1.24494e+23,-0.000219293,1.24494e+23
3.1e-05,2.19355,-1.27602e+23,-0.000219355,1.27602e+23
3.11e-05,2.19417,-1.30787e+23,-0.000219417,1.30787e+23
3.12e-05,2.19478,-1.34052e+23,-0.000219478,1.34052e+23
3.13e-05,2.1954,-1.37397e+23,-0.00021954,1.37397e+23
3.14e-05,2.19601,-1.40825e+23,-0.000219601,1.40825e+23
3.15e-05,2.19663,-1.44339e+23,-0.000219663,1.44339e+23
3.16e-05,2.19725,-1.4794e+23,-0.000219725,1.4794e+23
3.17e-05,2.19786,-1.5163e+23,-0.000219786,1.5163e+23
3.18e-05,2.19848,-1.55412e+23,-0.000219848,1.55412e+23
3.19e-05,2.19909,-1.59287e+23,-0.000219909,1.59287e+23
3.2e-05,2.19971,-1.63259e+23,-0.000219971,1.63259e+23
3.21e-05,2.20033,-1.67329e+23,-0.000220033,1.67329e+23
3.22e-05,2.20094,-1.715e+23,-0.000220094,1.715e+23
3.23e-05,2.20156,-1.75774e+23,-0.000220156,1.75774e+23
3.24e-05,2.20217,-1.80155e+23,-0.000220217,1.80155e+23
3.25e-05,2.20279,-1.84644e+23,-0.000220279,1.84644e+23
3.26e-05,2.2034,-1.89244e+23,-0.00022034,1.89244e+23
3.27e-05,2.20402,-1.93958e+23,-0.000220402,1.93958e+23
3.28e-05,2.20463,-1.98789e+23,-0.000220463,1.98789e+23
3.29e-05,2.20525,-2.0374e+23,-0.000220525,2.0374e+23
3.3e-05,2.20586,-2.08813e+23,-0.000220586,2.08813e+23
3.31e-05,2.20648,-2.14012e+23,-0.000220648,2.14012e+23
3.32e-05,2.20709,-2.1934e+23,-0.000220709,2.1934e+23
3.33e-05,2.20771,-2.248e+23,-0.000220771,2.248e+23
3.34e-05,2.20832,-2.30394e+23,-0.000220832,2.30394e+23
3.35e-05,2.20894,-2.36128e+23,-0.000220894,2.36128e+23
3.36e-05,2.20955,-2.42003e+23,-0.000220955,2.42003e+23
3.37e-05,2.21016,-2.48023e+23,-0.000221016,2.48023e+23
3.38e-05,2.21078,-2.54192e+23,-0.000221078,2.54192e+23
3.39e-05,2.21139,-2.60514e+23,-0.000221139,2.60514e+23
3.4e-05,2.21201,-2.66993e+23,-0.000221201,2.66993e+23
3.41e-05,2.21262,-2.73631e+23,-0.000221262,2.73631e+23
3.42e-05,2.21324,-2.80434e+23,-0.000221324,2.80434e+23
3.43e-05,2.21385,-2.87404e+23,-0.000221385,2.87404e+23
3.44e-05,2.21446,-2.94547e+23,-0.000221446,2.94547e+23
3.45e-05,2.21508,-3.01867e+23,-0.000221508,3.01867e+23
3.46e-05,2.21569,-3.09367e+23,-0.000221569,3.09367e+23
3.47e-05,2.2163,-3.17053e+23,-0.00022163,3.17053e+23
3.48e-05,2.21692,-3.24928e+23,-0.000221692,3.24928e+23
3.49e-05,2.21753,-3.32998e+23,-0.000221753,3.32998e+23
3.5e-05,2.21814,-3.41267e+23,-0.000221814,3.41267e+23
3.51e-05,2.21876,-3.49741e+23,-0.000221876,3.49741e+23
3.52e-05,2.21937,-3.58423e+23,-0.000221937,3.58423e+23
3.53e-05,2.21998,-3.6732e+23,-0.000221998,3.6732e+23
3.54e-05,2.2206,-3.76436e+23,-0.00022206,3.76436e+23
3.55e-05,2.22121,-3.85777e+23,-0.000222121,3.85777e+23
3.56e-05,2.22182,-3.95349e+23,-0.000222182,3.95349e+23
3.57e-05,2.22243,-4.05157e+23,-0.000222243,4.05157e+23
3.58e-05,2.22305,-4.15206e+23,-0.000222305,4.15206e+23
3.59e-05,2.22366,-4.25503e+23,-0.000222366,4.25503e+23
3.6e-05,2.22427,-4.36054e+23,-0.000222427,4.36054e+23
3.61e-05,2.22488,-4.46866e+23,-0.000222488,4.46866e+23
3.62e-05,2.2255,-4.57943e+23,-0.00022255,4.57943e+23
3.63e-05,2.22611,-4.69294e+23,-0.000222611,4.69294e+23
3.64e-05,2.22672,-4.80924e+23,-0.000222672,4.80924e+23
3.65e-05,2.22733,-4.9284e+23,-0.000222733,4.9284e+23
3.66e-05,2.22794,-5.0505e+23,-0.000222794,5.0505e+23
3.67e-05,2.22855,-5.17561e+23,-0.000222855,5.17561e+23
3.68e-05,2.22917,-5.3038e+23,-0.000222917,5.3038e+23
