time,V(N001),V(N002),I(V1),I(R1),I(C1),I(L1)
0,1,-0,-0.0001,-0.0001,-0.0001,0
1e-07,1,-0,-0.0001,-0.0001,-0.0001,0
2e-07,1,0.01,-9.9e-05,-9.9e-05,-9.9e-05,0
3e-07,1,0.0199,-9.801e-05,-9.801e-05,-9.701e-05,-1e-06
4e-07,1,0.029601,-9.70399e-05,-9.70399e-05,-9.40499e-05,-2.99e-06
5e-07,1,0.039006,-9.60994e-05,-9.60994e-05,-9.01493e-05,-5.9501e-06
6e-07,1,0.0480209,-9.51979e-05,-9.51979e-05,-8.53472e-05,-9.8507e-06
7e-07,1,0.0565556,-9.43444e-05,-9.43444e-05,-7.96916e-05,-1.46528e-05
8e-07,1,0.0645248,-9.35475e-05,-9.35475e-05,-7.32392e-05,-2.03084e-05
9e-07,1,0.0718487,-9.28151e-05,-9.28151e-05,-6.60543e-05,-2.67608e-05
1e-06,1,0.0784542,-9.21546e-05,-9.21546e-05,-5.82089e-05,-3.39457e-05
1.1e-06,1,0.084275,-9.15725e-05,-9.15725e-05,-4.97814e-05,-4.17911e-05
1.2e-06,1,0.0892532,-9.10747e-05,-9.10747e-05,-4.08561e-05,-5.02186e-05
1.3e-06,1,0.0933388,-9.06661e-05,-9.06661e-05,-3.15222e-05,-5.91439e-05
1.4e-06,1,0.096491,-9.03509e-05,-9.03509e-05,-2.18731e-05,-6.84778e-05
1.5e-06,1,0.0986783,-9.01322e-05,-9.01322e-05,-1.20052e-05,-7.81269e-05
1.6e-06,1,0.0998788,-9.00121e-05,-9.00121e-05,-2.01736e-06,-8.79948e-05
1.7e-06,1,0.100081,-8.99919e-05,-8.99919e-05,7.99069e-06,-9.79826e-05
1.8e-06,1,0.0992815,-9.00719e-05,-9.00719e-05,1.79188e-05,-0.000107991
1.9e-06,1,0.0974896,-9.0251e-05,-9.0251e-05,2.76678e-05,-0.000117919
2e-06,1,0.0947228,-9.05277e-05,-9.05277e-05,3.71401e-05,-0.000127668
2.1e-06,1,0.0910088,-9.08991e-05,-9.08991e-05,4.6241e-05,-0.00013714
2.2e-06,1,0.0863847,-9.13615e-05,-9.13615e-05,5.48794e-05,-0.000146241
2.3e-06,1,0.0808968,-9.19103e-05,-9.19103e-05,6.29691e-05,-0.000154879
2.4e-06,1,0.0745999,-9.254e-05,-9.254e-05,7.04291e-05,-0.000162969
2.5e-06,1,0.067557,-9.32443e-05,-9.32443e-05,7.71848e-05,-0.000170429
2.6e-06,1,0.0598385,-9.40162e-05,-9.40162e-05,8.31687e-05,-0.000177185
2.7e-06,1,0.0515216,-9.48478e-05,-9.48478e-05,8.83208e-05,-0.000183169
2.8e-06,1,0.0426895,-9.5731e-05,-9.5731e-05,9.25898e-05,-0.000188321
2.9e-06,1,0.0334306,-9.66569e-05,-9.66569e-05,9.59328e-05,-0.00019259
3e-06,1,0.0238373,-9.76163e-05,-9.76163e-05,9.83166e-05,-0.000195933
3.1e-06,1,0.0140056,-9.85994e-05,-9.85994e-05,9.97171e-05,-0.000198317
3.2e-06,1,0.00403391,-9.95966e-05,-9.95966e-05,0.000100121,-0.000199717
3.3e-06,1,-0.00597814,-0.000100598,-0.000100598,9.95227e-05,-0.000200121
3.4e-06,1,-0.0159304,-0.000101593,-0.000101593,9.79296e-05,-0.000199523
3.5e-06,1,-0.0257234,-0.000102572,-0.000102572,9.53573e-05,-0.00019793
3.6e-06,1,-0.0352591,-0.000103526,-0.000103526,9.18314e-05,-0.000195357
3.7e-06,1,-0.0444422,-0.000104444,-0.000104444,8.73872e-05,-0.000191831
3.8e-06,1,-0.053181,-0.000105318,-0.000105318,8.20691e-05,-0.000187387
3.9e-06,1,-0.0613879,-0.000106139,-0.000106139,7.59303e-05,-0.000182069
4e-06,1,-0.0689809,-0.000106898,-0.000106898,6.90322e-05,-0.00017593
4.1e-06,1,-0.0758841,-0.000107588,-0.000107588,6.14438e-05,-0.000169032
4.2e-06,1,-0.0820285,-0.000108203,-0.000108203,5.32409e-05,-0.000161444
4.3e-06,1,-0.0873526,-0.000108735,-0.000108735,4.45057e-05,-0.000153241
4.4e-06,1,-0.0918032,-0.00010918,-0.00010918,3.53254e-05,-0.000144506
4.5e-06,1,-0.0953357,-0.000109534,-0.000109534,2.57918e-05,-0.000135325
4.6e-06,1,-0.0979149,-0.000109791,-0.000109791,1.60003e-05,-0.000125792
4.7e-06,1,-0.0995149,-0.000109951,-0.000109951,6.04881e-06,-0.000116
4.8e-06,1,-0.10012,-0.000110012,-0.000110012,-3.96316e-06,-0.000106049
4.9e-06,1,-0.0997235,-0.000109972,-0.000109972,-1.39355e-05,-9.60368e-05
5e-06,1,-0.0983299,-0.000109833,-0.000109833,-2.37685e-05,-8.60645e-05
5.1e-06,1,-0.0959531,-0.000109595,-0.000109595,-3.33638e-05,-7.62315e-05
5.2e-06,1,-0.0926167,-0.000109262,-0.000109262,-4.26255e-05,-6.66362e-05
5.3e-06,1,-0.0883541,-0.000108835,-0.000108835,-5.14609e-05,-5.73745e-05
5.4e-06,1,-0.0832081,-0.000108321,-0.000108321,-5.97817e-05,-4.85391e-05
5.5e-06,1,-0.0772299,-0.000107723,-0.000107723,-6.75047e-05,-4.02183e-05
5.6e-06,1,-0.0704794,-0.000107048,-0.000107048,-7.45526e-05,-3.24953e-05
5.7e-06,1,-0.0630242,-0.000106302,-0.000106302,-8.0855e-05,-2.54474e-05
5.8e-06,1,-0.0549386,-0.000105494,-0.000105494,-8.63489e-05,-1.9145e-05
5.9e-06,1,-0.0463038,-0.00010463,-0.00010463,-9.09793e-05,-1.36511e-05
6e-06,1,-0.0372058,-0.000103721,-0.000103721,-9.46999e-05,-9.02071e-06
6.1e-06,1,-0.0277358,-0.000102774,-0.000102774,-9.74735e-05,-5.30013e-06
6.2e-06,1,-0.0179885,-0.000101799,-0.000101799,-9.92723e-05,-2.52655e-06
6.3e-06,1,-0.00806127,-0.000100806,-0.000100806,-0.000100078,-7.27698e-07
6.4e-06,1,0.00194658,-9.98053e-05,-9.98053e-05,-9.98838e-05,7.84286e-08
6.5e-06,1,0.011935,-9.88065e-05,-9.88065e-05,-9.86903e-05,-1.16229e-07
6.6e-06,1,0.021804,-9.78196e-05,-9.78196e-05,-9.65099e-05,-1.30972e-06
6.7e-06,1,0.031455,-9.68545e-05,-9.68545e-05,-9.33644e-05,-3.49012e-06
6.8e-06,1,0.0407914,-9.59209e-05,-9.59209e-05,-8.92852e-05,-6.63562e-06
6.9e-06,1,0.0497199,-9.5028e-05,-9.5028e-05,-8.43132e-05,-1.07148e-05
7e-06,1,0.0581513,-9.41849e-05,-9.41849e-05,-7.84981e-05,-1.56868e-05
7.1e-06,1,0.0660011,-9.33999e-05,-9.33999e-05,-7.1898e-05,-2.15019e-05
7.2e-06,1,0.0731909,-9.26809e-05,-9.26809e-05,-6.45789e-05,-2.8102e-05
7.3e-06,1,0.0796488,-9.20351e-05,-9.20351e-05,-5.66141e-05,-3.54211e-05
7.4e-06,1,0.0853102,-9.1469e-05,-9.1469e-05,-4.8083e-05,-4.33859e-05
7.5e-06,1,0.0901185,-9.09882e-05,-9.09882e-05,-3.90712e-05,-5.1917e-05
7.6e-06,1,0.0940256,-9.05974e-05,-9.05974e-05,-2.96686e-05,-6.09288e-05
7.7e-06,1,0.0969925,-9.03008e-05,-9.03008e-05,-1.99694e-05,-7.03314e-05
7.8e-06,1,0.0989894,-9.01011e-05,-9.01011e-05,-1.00704e-05,-8.00306e-05
7.9e-06,1,0.0999964,-9.00004e-05,-9.00004e-05,-7.08001e-08,-8.99296e-05
8e-06,1,0.100004,-8.99996e-05,-8.99996e-05,9.92955e-06,-9.99292e-05
8.1e-06,1,0.0990106,-9.00989e-05,-9.00989e-05,1.98306e-05,-0.00010993
8.2e-06,1,0.0970275,-9.02973e-05,-9.02973e-05,2.95334e-05,-0.000119831
8.3e-06,1,0.0940742,-9.05926e-05,-9.05926e-05,3.89408e-05,-0.000129533
8.4e-06,1,0.0901801,-9.0982e-05,-9.0982e-05,4.79588e-05,-0.000138941
8.5e-06,1,0.0853842,-9.14616e-05,-9.14616e-05,5.64972e-05,-0.000147959
8.6e-06,1,0.0797345,-9.20266e-05,-9.20266e-05,6.44707e-05,-0.000156497
8.7e-06,1,0.0732874,-9.26713e-05,-9.26713e-05,7.17994e-05,-0.000164471
8.8e-06,1,0.0661075,-9.33893e-05,-9.33893e-05,7.84101e-05,-0.000171799
8.9e-06,1,0.0582665,-9.41734e-05,-9.41734e-05,8.42368e-05,-0.00017841
9e-06,1,0.0498428,-9.50157e-05,-9.50157e-05,8.92211e-05,-0.000184237
9.1e-06,1,0.0409207,-9.59079e-05,-9.59079e-05,9.33131e-05,-0.000189221
9.2e-06,1,0.0315894,-9.68411e-05,-9.68411e-05,9.64721e-05,-0.000193313
9.3e-06,1,0.0219422,-9.78058e-05,-9.78058e-05,9.86663e-05,-0.000196472
9.4e-06,1,0.0120755,-9.87924e-05,-9.87924e-05,9.98738e-05,-0.000198666
9.5e-06,1,0.00208815,-9.97912e-05,-9.97912e-05,0.000100083,-0.000199874
9.6e-06,1,-0.00792012,-0.000100792,-0.000100792,9.92906e-05,-0.000200083
9.7e-06,1,-0.0178492,-0.000101785,-0.000101785,9.75057e-05,-0.000199291
9.8e-06,1,-0.0275998,-0.00010276,-0.00010276,9.47458e-05,-0.000197506
9.9e-06,1,-0.0370743,-0.000103707,-0.000103707,9.10383e-05,-0.000194746
1e-05,1,-0.0461782,-0.000104618,-0.000104618,8.64205e-05,-0.000191038
1.01e-05,1,-0.0548202,-0.000105482,-0.000105482,8.09385e-05,-0.000186421
1.02e-05,1,-0.0629141,-0.000106291,-0.000106291,7.46471e-05,-0.000180938
1.03e-05,1,-0.0703788,-0.000107038,-0.000107038,6.76092e-05,-0.000174647
1.04e-05,1,-0.0771397,-0.000107714,-0.000107714,5.98952e-05,-0.000167609
1.05e-05,1,-0.0831292,-0.000108313,-0.000108313,5.15823e-05,-0.000159895
1.06e-05,1,-0.0882874,-0.000108829,-0.000108829,4.27536e-05,-0.000151582
1.07e-05,1,-0.0925628,-0.000109256,-0.000109256,3.34973e-05,-0.000142754
1.08e-05,1,-0.0959125,-0.000109591,-0.000109591,2.3906e-05,-0.000133497
1.09e-05,1,-0.0983031,-0.00010983,-0.00010983,1.40757e-05,-0.000123906
1.1e-05,1,-0.0997107,-0.000109971,-0.000109971,4.10465e-06,-0.000114076
1.11e-05,1,-0.100121,-0.000110012,-0.000110012,-5.90747e-06,-0.000104105
1.12e-05,1,-0.0995304,-0.000109953,-0.000109953,-1.58605e-05,-9.40925e-05
1.13e-05,1,-0.0979444,-0.000109794,-0.000109794,-2.56549e-05,-8.41395e-05
1.14e-05,1,-0.0953789,-0.000109538,-0.000109538,-3.51928e-05,-7.43451e-05
1.15e-05,1,-0.0918596,-0.000109186,-0.000109186,-4.43788e-05,-6.48072e-05
1.16e-05,1,-0.0874217,-0.000108742,-0.000108742,-5.3121e-05,-5.56212e-05
1.17e-05,1,-0.0821096,-0.000108211,-0.000108211,-6.13319e-05,-4.6879e-05
1.18e-05,1,-0.0759764,-0.000107598,-0.000107598,-6.89296e-05,-3.86681e-05
1.19e-05,1,-0.0690835,-0.000106908,-0.000106908,-7.58379e-05,-3.10704e-05
1.2e-05,1,-0.0614997,-0.00010615,-0.00010615,-8.19879e-05,-2.41621e-05
1.21e-05,1,-0.0533009,-0.00010533,-0.00010533,-8.7318e-05,-1.80121e-05
1.22e-05,1,-0.0445691,-0.000104457,-0.000104457,-9.17749e-05,-1.2682e-05
1.23e-05,1,-0.0353916,-0.000103539,-0.000103539,-9.5314e-05,-8.22512e-06
1.24e-05,1,-0.0258602,-0.000102586,-0.000102586,-9.79001e-05,-4.68596e-06
1.25e-05,1,-0.0160702,-0.000101607,-0.000101607,-9.95071e-05,-2.09994e-06
1.26e-05,1,-0.00611948,-0.000100612,-0.000100612,-0.000100119,-4.92921e-07
1.27e-05,1,0.00389242,-9.96108e-05,-9.96108e-05,-9.97298e-05,1.19027e-07
1.28e-05,1,0.0138654,-9.86135e-05,-9.86135e-05,-9.83432e-05,-2.70215e-07
1.29e-05,1,0.0236997,-9.763e-05,-9.763e-05,-9.59733e-05,-1.65675e-06
1.3e-05,1,0.033297,-9.66703e-05,-9.66703e-05,-9.26436e-05,-4.02673e-06
1.31e-05,1,0.0425614,-9.57439e-05,-9.57439e-05,-8.83874e-05,-7.35643e-06
1.32e-05,1,0.0514001,-9.486e-05,-9.486e-05,-8.32474e-05,-1.16126e-05
1.33e-05,1,0.0597249,-9.40275e-05,-9.40275e-05,-7.72749e-05,-1.67526e-05
1.34e-05,1,0.0674524,-9.32548e-05,-9.32548e-05,-7.05297e-05,-2.27251e-05
1.35e-05,1,0.0745054,-9.25495e-05,-9.25495e-05,-6.30792e-05,-2.94703e-05
1.36e-05,1,0.0808133,-9.19187e-05,-9.19187e-05,-5.49978e-05,-3.69208e-05
1.37e-05,1,0.086313,-9.13687e-05,-9.13687e-05,-4.63665e-05,-4.50022e-05
1.38e-05,1,0.0909497,-9.0905e-05,-9.0905e-05,-3.72715e-05,-5.36335e-05
1.39e-05,1,0.0946769,-9.05323e-05,-9.05323e-05,-2.78039e-05,-6.27285e-05
1.4e-05,1,0.0974572,-9.02543e-05,-9.02543e-05,-1.80581e-05,-7.21961e-05
1.41e-05,1,0.0992631,-9.00737e-05,-9.00737e-05,-8.13183e-06,-8.19419e-05
1.42e-05,1,0.100076,-8.99924e-05,-8.99924e-05,1.87579e-06,-9.18682e-05
1.43e-05,1,0.0998887,-9.00111e-05,-9.00111e-05,1.18647e-05,-0.000101876
1.44e-05,1,0.0987022,-9.01298e-05,-9.01298e-05,2.17349e-05,-0.000111865
1.45e-05,1,0.0965287,-9.03471e-05,-9.03471e-05,3.13877e-05,-0.000121735
1.46e-05,1,0.0933899,-9.0661e-05,-9.0661e-05,4.07267e-05,-0.000131388
1.47e-05,1,0.0893173,-9.10683e-05,-9.10683e-05,4.96585e-05,-0.000140727
1.48e-05,1,0.0843514,-9.15649e-05,-9.15649e-05,5.80936e-05,-0.000149658
1.49e-05,1,0.0785421,-9.21458e-05,-9.21458e-05,6.59478e-05,-0.000158094
1.5e-05,1,0.0719473,-9.28053e-05,-9.28053e-05,7.31425e-05,-0.000165948
1.51e-05,1,0.064633,-9.35367e-05,-9.35367e-05,7.96058e-05,-0.000173143
1.52e-05,1,0.0566724,-9.43328e-05,-9.43328e-05,8.52731e-05,-0.000179606
1.53e-05,1,0.0481451,-9.51855e-05,-9.51855e-05,9.00876e-05,-0.000185273
1.54e-05,1,0.0391364,-9.60864e-05,-9.60864e-05,9.40012e-05,-0.000190088
1.55e-05,1,0.0297362,-9.70264e-05,-9.70264e-05,9.69749e-05,-0.000194001
1.56e-05,1,0.0200388,-9.79961e-05,-9.79961e-05,9.89787e-05,-0.000196975
1.57e-05,1,0.0101409,-9.89859e-05,-9.89859e-05,9.99928e-05,-0.000198979
1.58e-05,1,0.0001416,-9.99858e-05,-9.99858e-05,0.000100007,-0.000199993
1.59e-05,1,-0.0098591,-0.000100986,-0.000100986,9.90211e-05,-0.000200007
1.6e-05,1,-0.0197612,-0.000101976,-0.000101976,9.70449e-05,-0.000199021
1.61e-05,1,-0.0294657,-0.000102947,-0.000102947,9.40984e-05,-0.000197045
1.62e-05,1,-0.0388755,-0.000103888,-0.000103888,9.02108e-05,-0.000194098
1.63e-05,1,-0.0478966,-0.00010479,-0.00010479,8.54212e-05,-0.000190211
1.64e-05,1,-0.0564387,-0.000105644,-0.000105644,7.97773e-05,-0.000185421
1.65e-05,1,-0.0644165,-0.000106442,-0.000106442,7.33356e-05,-0.000179777
1.66e-05,1,-0.07175,-0.000107175,-0.000107175,6.61606e-05,-0.000173336
1.67e-05,1,-0.0783661,-0.000107837,-0.000107837,5.8324e-05,-0.000166161
1.68e-05,1,-0.0841985,-0.00010842,-0.00010842,4.99042e-05,-0.000158324
1.69e-05,1,-0.0891889,-0.000108919,-0.000108919,4.09853e-05,-0.000149904
1.7e-05,1,-0.0932874,-0.000109329,-0.000109329,3.16565e-05,-0.000140985
1.71e-05,1,-0.0964531,-0.000109645,-0.000109645,2.20112e-05,-0.000131657
1.72e-05,1,-0.0986542,-0.000109865,-0.000109865,1.21458e-05,-0.000122011
1.73e-05,1,-0.0998688,-0.000109987,-0.000109987,2.15893e-06,-0.000112146
1.74e-05,1,-0.100085,-0.000110008,-0.000110008,-7.84954e-06,-0.000102159
1.75e-05,1,-0.0992997,-0.00010993,-0.00010993,-1.77795e-05,-9.21505e-05
1.76e-05,1,-0.0975218,-0.000109752,-0.000109752,-2.75317e-05,-8.22205e-05
1.77e-05,1,-0.0947686,-0.000109477,-0.000109477,-3.70086e-05,-7.24683e-05
1.78e-05,1,-0.0910678,-0.000109107,-0.000109107,-4.61153e-05,-6.29914e-05
1.79e-05,1,-0.0864562,-0.000108646,-0.000108646,-5.4761e-05,-5.38847e-05
1.8e-05,1,-0.0809801,-0.000108098,-0.000108098,-6.2859e-05,-4.5239e-05
1.81e-05,1,-0.0746942,-0.000107469,-0.000107469,-7.03284e-05,-3.7141e-05
1.82e-05,1,-0.0676614,-0.000106766,-0.000106766,-7.70945e-05,-2.96716e-05
1.83e-05,1,-0.059952,-0.000105995,-0.000105995,-8.30897e-05,-2.29055e-05
1.84e-05,1,-0.051643,-0.000105164,-0.000105164,-8.8254e-05,-1.69103e-05
1.85e-05,1,-0.0428176,-0.000104282,-0.000104282,-9.25358e-05,-1.1746e-05
1.86e-05,1,-0.033564,-0.000103356,-0.000103356,-9.58922e-05,-7.46422e-06
1.87e-05,1,-0.0239748,-0.000102397,-0.000102397,-9.82897e-05,-4.10782e-06
1.88e-05,1,-0.0141458,-0.000101415,-0.000101415,-9.97042e-05,-1.71034e-06
1.89e-05,1,-0.00417539,-0.000100418,-0.000100418,-0.000100122,-2.95759e-07
1.9e-05,1,0.00583679,-9.94163e-05,-9.94163e-05,-9.95381e-05,1.2178e-07
1.91e-05,1,0.0157906,-9.84209e-05,-9.84209e-05,-9.7959e-05,-4.61899e-07
1.92e-05,1,0.0255865,-9.74413e-05,-9.74413e-05,-9.54004e-05,-2.04096e-06
1.93e-05,1,0.0351265,-9.64873e-05,-9.64873e-05,-9.18877e-05,-4.59961e-06
1.94e-05,1,0.0443153,-9.55685e-05,-9.55685e-05,-8.74562e-05,-8.11226e-06
1.95e-05,1,0.0530609,-9.46939e-05,-9.46939e-05,-8.21501e-05,-1.25438e-05
1.96e-05,1,0.0612759,-9.38724e-05,-9.38724e-05,-7.60225e-05,-1.78499e-05
1.97e-05,1,0.0688782,-9.31122e-05,-9.31122e-05,-6.91347e-05,-2.39775e-05
1.98e-05,1,0.0757917,-9.24208e-05,-9.24208e-05,-6.15555e-05,-3.08653e-05
1.99e-05,1,0.0819472,-9.18053e-05,-9.18053e-05,-5.33608e-05,-3.84445e-05
2e-05,1,0.0872833,-9.12717e-05,-9.12717e-05,-4.46325e-05,-4.66392e-05
2.01e-05,1,0.0917466,-9.08253e-05,-9.08253e-05,-3.54578e-05,-5.53675e-05
2.02e-05,1,0.0952923,-9.04708e-05,-9.04708e-05,-2.59286e-05,-6.45422e-05
2.03e-05,1,0.0978852,-9.02115e-05,-9.02115e-05,-1.61401e-05,-7.40714e-05
2.04e-05,1,0.0994992,-9.00501e-05,-9.00501e-05,-6.19015e-06,-8.38599e-05
2.05e-05,1,0.100118,-8.99882e-05,-8.99882e-05,3.82167e-06,-9.38098e-05
2.06e-05,1,0.099736,-9.00264e-05,-9.00264e-05,1.37953e-05,-0.000103822
2.07e-05,1,0.0983565,-9.01643e-05,-9.01643e-05,2.36309e-05,-0.000113795
2.08e-05,1,0.0959934,-9.04007e-05,-9.04007e-05,3.32303e-05,-0.000123631
2.09e-05,1,0.0926704,-9.0733e-05,-9.0733e-05,4.24973e-05,-0.00013323
2.1e-05,1,0.0884207,-9.11579e-05,-9.11579e-05,5.13394e-05,-0.000142497
2.11e-05,1,0.0832867,-9.16713e-05,-9.16713e-05,5.96681e-05,-0.000151339
2.12e-05,1,0.0773199,-9.2268e-05,-9.2268e-05,6.74e-05,-0.000159668
2.13e-05,1,0.0705799,-9.2942e-05,-9.2942e-05,7.4458e-05,-0.0001674
2.14e-05,1,0.0631341,-9.36866e-05,-9.36866e-05,8.07714e-05,-0.000174458
2.15e-05,1,0.055057,-9.44943e-05,-9.44943e-05,8.62771e-05,-0.000180771
2.16e-05,1,0.0464293,-9.53571e-05,-9.53571e-05,9.09201e-05,-0.000186277
2.17e-05,1,0.0373373,-9.62663e-05,-9.62663e-05,9.46538e-05,-0.00019092
2.18e-05,1,0.0278719,-9.72128e-05,-9.72128e-05,9.7441e-05,-0.000194654
2.19e-05,1,0.0181278,-9.81872e-05,-9.81872e-05,9.92538e-05,-0.000197441
2.2e-05,1,0.0082024,-9.91798e-05,-9.91798e-05,0.000100074,-0.000199254
2.21e-05,1,-0.001805,-0.000100181,-0.000100181,9.98935e-05,-0.000200074
2.22e-05,1,-0.0117944,-0.000101179,-0.000101179,9.87141e-05,-0.000199893
2.23e-05,1,-0.0216658,-0.000102167,-0.000102167,9.65475e-05,-0.000198714
2.24e-05,1,-0.0313205,-0.000103132,-0.000103132,9.34154e-05,-0.000196547
2.25e-05,1,-0.0406621,-0.000104066,-0.000104066,8.93492e-05,-0.000193415
2.26e-05,1,-0.049597,-0.00010496,-0.00010496,8.43895e-05,-0.000189349
2.27e-05,1,-0.0580359,-0.000105804,-0.000105804,7.85859e-05,-0.00018439
2.28e-05,1,-0.0658945,-0.000106589,-0.000106589,7.19965e-05,-0.000178586
2.29e-05,1,-0.0730942,-0.000107309,-0.000107309,6.46871e-05,-0.000171996
2.3e-05,1,-0.0795629,-0.000107956,-0.000107956,5.67308e-05,-0.000164687
2.31e-05,1,-0.085236,-0.000108524,-0.000108524,4.82072e-05,-0.000156731
2.32e-05,1,-0.0900567,-0.000109006,-0.000109006,3.92015e-05,-0.000148207
2.33e-05,1,-0.0939768,-0.000109398,-0.000109398,2.98038e-05,-0.000139202
2.34e-05,1,-0.0969572,-0.000109696,-0.000109696,2.01081e-05,-0.000129804
2.35e-05,1,-0.098968,-0.000109897,-0.000109897,1.02113e-05,-0.000120108
2.36e-05,1,-0.0999892,-0.000109999,-0.000109999,2.124e-07,-0.000110211
2.37e-05,1,-0.10001,-0.000110001,-0.000110001,-9.78864e-06,-0.000100212
2.38e-05,1,-0.0990315,-0.000109903,-0.000109903,-1.96918e-05,-9.02114e-05
2.39e-05,1,-0.0970624,-0.000109706,-0.000109706,-2.9398e-05,-8.03082e-05
2.4e-05,1,-0.0941225,-0.000109412,-0.000109412,-3.88103e-05,-7.0602e-05
2.41e-05,1,-0.0902415,-0.000109024,-0.000109024,-4.78344e-05,-6.11897e-05
2.42e-05,1,-0.0854581,-0.000108546,-0.000108546,-5.63802e-05,-5.21656e-05
2.43e-05,1,-0.0798201,-0.000107982,-0.000107982,-6.43622e-05,-4.36198e-05
2.44e-05,1,-0.0733838,-0.000107338,-0.000107338,-7.17006e-05,-3.56378e-05
2.45e-05,1,-0.0662138,-0.000106621,-0.000106621,-7.8322e-05,-2.82994e-05
2.46e-05,1,-0.0583816,-0.000105838,-0.000105838,-8.41602e-05,-2.1678e-05
2.47e-05,1,-0.0499655,-0.000104997,-0.000104997,-8.91567e-05,-1.58398e-05
2.48e-05,1,-0.0410499,-0.000104105,-0.000104105,-9.32617e-05,-1.08433e-05
2.49e-05,1,-0.0317237,-0.000103172,-0.000103172,-9.64341e-05,-6.73829e-06
2.5e-05,1,-0.0220803,-0.000102208,-0.000102208,-9.86421e-05,-3.56592e-06
2.51e-05,1,-0.0122161,-0.000101222,-0.000101222,-9.98637e-05,-1.35789e-06
2.52e-05,1,-0.00222972,-0.000100223,-0.000100223,-0.000100087,-1.36285e-07
2.53e-05,1,0.00777895,-9.92221e-05,-9.92221e-05,-9.93088e-05,8.66867e-08
2.54e-05,1,0.0177098,-9.8229e-05,-9.8229e-05,-9.75378e-05,-6.91209e-07
2.55e-05,1,0.0274636,-9.72536e-05,-9.72536e-05,-9.47914e-05,-2.46219e-06
2.56e-05,1,0.0369428,-9.63057e-05,-9.63057e-05,-9.10972e-05,-5.20855e-06
2.57e-05,1,0.0460525,-9.53948e-05,-9.53948e-05,-8.64919e-05,-8.90283e-06
2.58e-05,1,0.0547017,-9.45298e-05,-9.45298e-05,-8.10218e-05,-1.35081e-05
2.59e-05,1,0.0628038,-9.37196e-05,-9.37196e-05,-7.47414e-05,-1.89782e-05
2.6e-05,1,0.070278,-9.29722e-05,-9.29722e-05,-6.77136e-05,-2.52586e-05
2.61e-05,1,0.0770493,-9.22951e-05,-9.22951e-05,-6.00086e-05,-3.22864e-05
2.62e-05,1,0.0830502,-9.1695e-05,-9.1695e-05,-5.17036e-05,-3.99914e-05
2.63e-05,1,0.0882206,-9.11779e-05,-9.11779e-05,-4.28816e-05,-4.82964e-05
2.64e-05,1,0.0925087,-9.07491e-05,-9.07491e-05,-3.36307e-05,-5.71184e-05
2.65e-05,1,0.0958718,-9.04128e-05,-9.04128e-05,-2.40435e-05,-6.63693e-05
2.66e-05,1,0.0982761,-9.01724e-05,-9.01724e-05,-1.42159e-05,-7.59565e-05
2.67e-05,1,0.0996977,-9.00302e-05,-9.00302e-05,-4.24613e-06,-8.57841e-05
2.68e-05,1,0.100122,-8.99878e-05,-8.99878e-05,5.76611e-06,-9.57539e-05
2.69e-05,1,0.0995457,-9.00454e-05,-9.00454e-05,1.57207e-05,-0.000105766
2.7e-05,1,0.0979737,-9.02026e-05,-9.02026e-05,2.5518e-05,-0.000115721
2.71e-05,1,0.0954219,-9.04578e-05,-9.04578e-05,3.50602e-05,-0.000125518
2.72e-05,1,0.0919158,-9.08084e-05,-9.08084e-05,4.42518e-05,-0.00013506
2.73e-05,1,0.0874907,-9.12509e-05,-9.12509e-05,5.30009e-05,-0.000144252
2.74e-05,1,0.0821906,-9.17809e-05,-9.17809e-05,6.12199e-05,-0.000153001
2.75e-05,1,0.0760686,-9.23931e-05,-9.23931e-05,6.88268e-05,-0.00016122
2.76e-05,1,0.0691859,-9.30814e-05,-9.30814e-05,7.57454e-05,-0.000168827
2.77e-05,1,0.0616114,-9.38389e-05,-9.38389e-05,8.19065e-05,-0.000175745
2.78e-05,1,0.0534207,-9.46579e-05,-9.46579e-05,8.72486e-05,-0.000181907
